
Circuit: .options savecurrents

Doing analysis at TEMP = 27.000000 and TNOM = 27.000000


No. of Data Rows : 1
********************************************
Operating point
********************************************
Doing analysis at TEMP = 27.000000 and TNOM = 27.000000


Initial Transient Solution
--------------------------

Node                                   Voltage
----                                   -------
vcc                                         12
in                                           0
in2                                          0
base                                   1.38412
coll                                   8.65475
emit                                  0.685495
emit2                                  9.39738
out                                          0
vin#branch                                   0
vcc#branch                          -0.0328229


No. of Data Rows : 1059

The file "vo1.ps" may be printed on a postscript printer.
Doing analysis at TEMP = 27.000000 and TNOM = 27.000000


No. of Data Rows : 71

The file "vo1f.ps" may be printed on a postscript printer.

The file "vo2f.ps" may be printed on a postscript printer.
v(out)/v(in)
                             .options savecurrents
                             AC Analysis  Sat May 22 10:08:26  2021
--------------------------------------------------------------------------------
Index   frequency       v(out)/v(in)                    
--------------------------------------------------------------------------------
0	1.000000e+01	-1.76506e+01,	-3.55382e+01	
1	1.258925e+01	-2.69948e+01,	-3.53325e+01	
2	1.584893e+01	-3.52086e+01,	-3.28219e+01	
3	1.995262e+01	-4.17010e+01,	-2.89818e+01	
4	2.511886e+01	-4.64594e+01,	-2.46886e+01	
5	3.162278e+01	-4.97707e+01,	-2.05233e+01	
6	3.981072e+01	-5.19963e+01,	-1.67862e+01	
7	5.011872e+01	-5.34587e+01,	-1.35852e+01	
8	6.309573e+01	-5.44055e+01,	-1.09198e+01	
9	7.943282e+01	-5.50128e+01,	-8.73897e+00	
10	1.000000e+02	-5.53999e+01,	-6.97409e+00	
11	1.258925e+02	-5.56458e+01,	-5.55552e+00	
12	1.584893e+02	-5.58016e+01,	-4.42013e+00	
13	1.995262e+02	-5.59002e+01,	-3.51376e+00	
14	2.511886e+02	-5.59625e+01,	-2.79129e+00	
15	3.162278e+02	-5.60018e+01,	-2.21587e+00	
16	3.981072e+02	-5.60267e+01,	-1.75764e+00	
17	5.011872e+02	-5.60423e+01,	-1.39260e+00	
18	6.309573e+02	-5.60522e+01,	-1.10153e+00	
19	7.943282e+02	-5.60585e+01,	-8.69007e-01	
20	1.000000e+03	-5.60624e+01,	-6.82715e-01	
21	1.258925e+03	-5.60649e+01,	-5.32755e-01	
22	1.584893e+03	-5.60665e+01,	-4.11152e-01	
23	1.995262e+03	-5.60674e+01,	-3.11439e-01	
24	2.511886e+03	-5.60680e+01,	-2.28308e-01	
25	3.162278e+03	-5.60684e+01,	-1.57333e-01	
26	3.981072e+03	-5.60686e+01,	-9.47366e-02	
27	5.011872e+03	-5.60687e+01,	-3.71845e-02	
28	6.309573e+03	-5.60687e+01,	1.838745e-02	
29	7.943282e+03	-5.60686e+01,	7.493847e-02	
30	1.000000e+04	-5.60684e+01,	1.354798e-01	
31	1.258925e+04	-5.60681e+01,	2.032351e-01	
32	1.584893e+04	-5.60675e+01,	2.818116e-01	
33	1.995262e+04	-5.60665e+01,	3.753920e-01	
34	2.511886e+04	-5.60650e+01,	4.889562e-01	
35	3.162278e+04	-5.60626e+01,	6.285447e-01	
36	3.981072e+04	-5.60587e+01,	8.015770e-01	
37	5.011872e+04	-5.60527e+01,	1.017239e+00	
38	6.309573e+04	-5.60430e+01,	1.286959e+00	
39	7.943282e+04	-5.60278e+01,	1.624987e+00	
40	1.000000e+05	-5.60036e+01,	2.049099e+00	
41	1.258925e+05	-5.59653e+01,	2.581431e+00	
42	1.584893e+05	-5.59046e+01,	3.249437e+00	
43	1.995262e+05	-5.58088e+01,	4.086911e+00	
44	2.511886e+05	-5.56574e+01,	5.134928e+00	
45	3.162278e+05	-5.54189e+01,	6.442331e+00	
46	3.981072e+05	-5.50443e+01,	8.065057e+00	
47	5.011872e+05	-5.44590e+01,	1.006287e+01	
48	6.309573e+05	-5.35520e+01,	1.249100e+01	
49	7.943282e+05	-5.21641e+01,	1.538266e+01	
50	1.000000e+06	-5.00807e+01,	1.871745e+01	
51	1.258925e+06	-4.70425e+01,	2.237271e+01	
52	1.584893e+06	-4.27933e+01,	2.606592e+01	
53	1.995262e+06	-3.71873e+01,	2.932163e+01	
54	2.511886e+06	-3.03385e+01,	3.152492e+01	

Index   frequency       v(out)/v(in)                    
--------------------------------------------------------------------------------
55	3.162278e+06	-2.27257e+01,	3.210691e+01	
56	3.981072e+06	-1.51269e+01,	3.080062e+01	
57	5.011872e+06	-8.36192e+00,	2.778705e+01	
58	6.309573e+06	-3.00832e+00,	2.360787e+01	
59	7.943282e+06	7.186932e-01,	1.893035e+01	
60	1.000000e+07	2.909202e+00,	1.434549e+01	
61	1.258925e+07	3.838334e+00,	1.027896e+01	
62	1.584893e+07	3.867188e+00,	6.975756e+00	
63	1.995262e+07	3.368519e+00,	4.508726e+00	
64	2.511886e+07	2.660212e+00,	2.806507e+00	
65	3.162278e+07	1.958469e+00,	1.709980e+00	
66	3.981072e+07	1.371511e+00,	1.039490e+00	
67	5.011872e+07	9.277907e-01,	6.423315e-01	
68	6.309573e+07	6.133216e-01,	4.095251e-01	
69	7.943282e+07	3.995684e-01,	2.717245e-01	
70	1.000000e+08	2.581384e-01,	1.879321e-01	
lco                 =  7.923603e+00
uco                 =  3.106930e+06
-v(in2)[40]/vin#branch[40] = 7.592820e+02,-1.04226e+02

The file "zin.ps" may be printed on a postscript printer.

The file "zin_db.ps" may be printed on a postscript printer.
ngspice-31 done
